T0898 2584:991 SEGGER J-Link V6.46 Log File (0001ms, 3563ms total)
T0898 2584:991 DLL Compiled: May 23 2019 17:49:56 (0001ms, 3563ms total)
T0898 2584:991 Logging started @ 2021-09-22 12:13 (0001ms, 3563ms total)
T0898 2584:992 JLINK_SetWarnOutHandler(...) (0000ms, 3563ms total)
T0898 2584:992 JLINK_OpenEx(...)
Firmware: J-Link V9 compiled Feb  2 2021 16:34:10
Hardware: V9.60
S/N: 69611299
Feature(s): RDI, GDB, FlashDL, FlashBP, JFlash
TELNET listener socket opened on port 19021WEBSRV 
Starting webserver (0060ms, 3623ms total)
T0898 2584:992 WEBSRV Webserver running on local port 19080 (0060ms, 3623ms total)
T0898 2584:992   returns O.K. (0060ms, 3623ms total)
T0898 2585:052 JLINK_GetEmuCaps()  returns 0xB9FF7BBF (0000ms, 3623ms total)
T0898 2585:052 JLINK_TIF_GetAvailable(...) (0002ms, 3625ms total)
T0898 2585:055 JLINK_SetErrorOutHandler(...) (0000ms, 3625ms total)
T0898 2585:055 JLINK_ExecCommand("ProjectFile = "D:\rasouli\project\kontor\New_app_30-06-1400\MDK-ARM\JLinkSettings.ini"", ...).   returns 0x00 (0014ms, 3639ms total)
T0898 2585:075 JLINK_ExecCommand("Device = STM32F103C8", ...). Device "STM32F103C8" selected.  returns 0x00 (0007ms, 3646ms total)
T0898 2585:082 JLINK_ExecCommand("DisableConnectionTimeout", ...).   returns 0x01 (0000ms, 3646ms total)
T0898 2585:082 JLINK_GetHardwareVersion()  returns 0x17700 (0000ms, 3646ms total)
T0898 2585:082 JLINK_GetDLLVersion()  returns 64600 (0000ms, 3646ms total)
T0898 2585:082 JLINK_GetFirmwareString(...) (0000ms, 3646ms total)
T0898 2585:098 JLINK_GetDLLVersion()  returns 64600 (0000ms, 3646ms total)
T0898 2585:098 JLINK_GetCompileDateTime() (0000ms, 3646ms total)
T0898 2585:103 JLINK_GetFirmwareString(...) (0000ms, 3646ms total)
T0898 2585:107 JLINK_GetHardwareVersion()  returns 0x17700 (0000ms, 3646ms total)
T0898 2585:127 JLINK_TIF_Select(JLINKARM_TIF_SWD)  returns 0x00 (0005ms, 3651ms total)
T0898 2585:132 JLINK_SetSpeed(3000) (0001ms, 3652ms total)
T0898 2585:133 JLINK_GetId() >0x10B TIF>Found SW-DP with ID 0x1BA01477 >0x0D TIF> >0x28 TIF> >0x0D TIF> >0x28 TIF> >0x0D TIF> >0x28 TIF> >0x0D TIF> >0x28 TIF> >0x0D TIF> >0x21 TIF> >0x0D TIF> >0x28 TIF> >0x0D TIF> >0x28 TIF> >0x0D TIF> >0x28 TIF> >0x0D TIF> >0x21 TIF> >0x0D TIF> >0x21 TIF> >0x0D TIF> >0x28 TIF> >0x0D TIF> >0x21 TIF> >0x0D TIF> >0x21 TIF> >0x0D TIF> >0x28 TIF> >0x0D TIF> >0x21 TIF> >0x0D TIF> >0x21 TIF> >0x0D TIF> >0x28 TIF> >0x0D TIF> >0x21 TIF> >0x0D TIF> >0x21 TIF> >0x0D TIF>
 >0x28 TIF> >0x0D TIF> >0x21 TIF> >0x0D TIF> >0x21 TIF> >0x0D TIF> >0x28 TIF> >0x0D TIF> >0x21 TIF> >0x0D TIF> >0x21 TIF> >0x0D TIF> >0x28 TIF> >0x0D TIF> >0x21 TIF> >0x0D TIF> >0x21 TIF> >0x10B TIF>Found SW-DP with ID 0x1BA01477 >0x0D TIF> >0x28 TIF> >0x0D TIF> >0x28 TIF> >0x0D TIF> >0x28 TIF> >0x0D TIF> >0x28 TIF> >0x0D TIF> >0x21 TIF> >0x0D TIF> >0x28 TIF>Scanning AP map to find all available APs >0x0D TIF> >0x28 TIF> >0x0D TIF> >0x21 TIF> >0x0D TIF> >0x21 TIF> >0x0D TIF> >0x28 TIF> >0x0D TIF>
 >0x21 TIF> >0x0D TIF> >0x21 TIF>AP[1]: Stopped AP scan as end of AP map has been reachedAP[0]: AHB-AP (IDR: 0x14770011)Iterating through AP map to find AHB-AP to use >0x42 TIF> >0x28 TIF> >0x0D TIF> >0x28 TIF> >0x0D TIF> >0x21 TIF> >0x0D TIF> >0x21 TIF> >0x42 TIF> >0x28 TIF> >0x0D TIF> >0x28 TIF> >0x0D TIF> >0x28 TIF> >0x0D TIF> >0x21 TIF> >0x0D TIF> >0x21 TIF>AP[0]: Core foundAP[0]: AHB-AP ROM base: 0xE00FF000 >0x0D TIF> >0x28 TIF> >0x0D TIF> >0x28 TIF> >0x0D TIF> >0x28 TIF> >0x0D TIF> >0x21 TIF>
 >0x0D TIF> >0x21 TIF>CPUID register: 0x411FC231. Implementer code: 0x41 (ARM)Found Cortex-M3 r1p1, Little endian. -- Max. mem block: 0x000086B8 -- CPU_ReadMem(4 bytes @ 0xE000EDF0) -- CPU_WriteMem(4 bytes @ 0xE000EDF0) -- CPU_ReadMem(4 bytes @ 0xE0002000)FPUnit: 6 code (BP) slots and 2 literal slots -- CPU_ReadMem(4 bytes @ 0xE000EDFC) -- CPU_WriteMem(4 bytes @ 0xE000EDFC) -- CPU_ReadMem(4 bytes @ 0xE0001000) -- CPU_WriteMem(4 bytes @ 0xE0001000) -- CPU_ReadMem(4 bytes @ 0xE000ED88)
 -- CPU_WriteMem(4 bytes @ 0xE000ED88) -- CPU_ReadMem(4 bytes @ 0xE000ED88) -- CPU_WriteMem(4 bytes @ 0xE000ED88)CoreSight components:ROMTbl[0] @ E00FF000 -- CPU_ReadMem(16 bytes @ 0xE00FF000) -- CPU_ReadMem(16 bytes @ 0xE000EFF0) -- CPU_ReadMem(16 bytes @ 0xE000EFE0)ROMTbl[0][0]: E000E000, CID: B105E00D, PID: 001BB000 SCS -- CPU_ReadMem(16 bytes @ 0xE0001FF0) -- CPU_ReadMem(16 bytes @ 0xE0001FE0)ROMTbl[0][1]: E0001000, CID: B105E00D, PID: 001BB002 DWT -- CPU_ReadMem(16 bytes @ 0xE0002FF0)
 -- CPU_ReadMem(16 bytes @ 0xE0002FE0)ROMTbl[0][2]: E0002000, CID: B105E00D, PID: 000BB003 FPB -- CPU_ReadMem(16 bytes @ 0xE0000FF0) -- CPU_ReadMem(16 bytes @ 0xE0000FE0)ROMTbl[0][3]: E0000000, CID: B105E00D, PID: 001BB001 ITM -- CPU_ReadMem(16 bytes @ 0xE00FF010) -- CPU_ReadMem(16 bytes @ 0xE0040FF0) -- CPU_ReadMem(16 bytes @ 0xE0040FE0)ROMTbl[0][4]: E0040000, CID: B105900D, PID: 001BB923 TPIU-Lite >0x0D TIF> >0x21 TIF>  returns 0x1BA01477 (0344ms, 3996ms total)
T0898 2585:477 JLINK_GetDLLVersion()  returns 64600 (0000ms, 3996ms total)
T0898 2585:477 JLINK_CORE_GetFound()  returns 0x30000FF (0000ms, 3996ms total)
T0898 2585:477 JLINK_GetDebugInfo(0x100 = JLINKARM_ROM_TABLE_ADDR_INDEX) -- Value=0xE00FF000  returns 0x00 (0000ms, 3996ms total)
T0898 2585:482 JLINK_GetDebugInfo(0x100 = JLINKARM_ROM_TABLE_ADDR_INDEX) -- Value=0xE00FF000  returns 0x00 (0000ms, 3996ms total)
T0898 2585:482 JLINK_GetDebugInfo(0x101 = JLINKARM_DEBUG_INFO_ETM_ADDR_INDEX) -- Value=0x00000000  returns 0x00 (0000ms, 3996ms total)
T0898 2585:482 JLINK_ReadMemEx(0xE0041FF0, 0x0010 Bytes, ..., Flags = 0x02000004) -- CPU_ReadMem(16 bytes @ 0xE0041FF0) - Data: 00 00 00 00 00 00 00 00 00 00 00 00 00 00 00 00  returns 0x10 (0002ms, 3998ms total)
T0898 2585:484 JLINK_GetDebugInfo(0x102 = JLINKARM_DEBUG_INFO_MTB_ADDR_INDEX) -- Value=0x00000000  returns 0x00 (0000ms, 3998ms total)
T0898 2585:484 JLINK_GetDebugInfo(0x103 = JLINKARM_DEBUG_INFO_TPIU_ADDR_INDEX) -- Value=0xE0040000  returns 0x00 (0000ms, 3998ms total)
T0898 2585:484 JLINK_GetDebugInfo(0x104 = JLINKARM_DEBUG_INFO_ITM_ADDR_INDEX) -- Value=0xE0000000  returns 0x00 (0000ms, 3998ms total)
T0898 2585:484 JLINK_GetDebugInfo(0x105 = JLINKARM_DEBUG_INFO_DWT_ADDR_INDEX) -- Value=0xE0001000  returns 0x00 (0000ms, 3998ms total)
T0898 2585:484 JLINK_GetDebugInfo(0x106 = JLINKARM_DEBUG_INFO_FPB_ADDR_INDEX) -- Value=0xE0002000  returns 0x00 (0000ms, 3998ms total)
T0898 2585:484 JLINK_GetDebugInfo(0x107 = JLINKARM_DEBUG_INFO_NVIC_ADDR_INDEX) -- Value=0xE000E000  returns 0x00 (0000ms, 3998ms total)
T0898 2585:484 JLINK_GetDebugInfo(0x10C = JLINKARM_DEBUG_INFO_DBG_ADDR_INDEX) -- Value=0xE000EDF0  returns 0x00 (0000ms, 3998ms total)
T0898 2585:484 JLINK_GetDebugInfo(0x01 = Unknown) -- Value=0x00000000  returns 0x00 (0000ms, 3998ms total)
T0898 2585:484 JLINK_ReadMemU32(0xE000ED00, 0x0001 Items, ...) -- CPU_ReadMem(4 bytes @ 0xE000ED00) - Data: 31 C2 1F 41  returns 1 (0001ms, 3999ms total)
T0898 2585:485 JLINK_GetDebugInfo(0x10F = JLINKARM_DEBUG_INFO_HAS_CORTEX_M_SECURITY_EXT_INDEX) -- Value=0x00000000  returns 0x00 (0000ms, 3999ms total)
T0898 2585:485 JLINK_SetResetType(JLINKARM_CM3_RESET_TYPE_NORMAL)  returns JLINKARM_CM3_RESET_TYPE_NORMAL (0000ms, 3999ms total)
T0898 2585:485 JLINK_Reset() -- CPU is running -- CPU_WriteMem(4 bytes @ 0xE000EDF0) -- CPU is running -- CPU_WriteMem(4 bytes @ 0xE000EDFC)Reset: Halt core after reset via DEMCR.VC_CORERESET. >0x35 TIF>Reset: Reset device via AIRCR.SYSRESETREQ. -- CPU is running -- CPU_WriteMem(4 bytes @ 0xE000ED0C) >0x0D TIF> >0x28 TIF> -- CPU_ReadMem(4 bytes @ 0xE000EDF0) -- CPU_ReadMem(4 bytes @ 0xE000EDF0) -- CPU is running -- CPU_WriteMem(4 bytes @ 0xE000EDF0) -- CPU is running -- CPU_WriteMem(4 bytes @ 0xE000EDFC)
 -- CPU_ReadMem(4 bytes @ 0xE000EDF0) -- CPU_WriteMem(4 bytes @ 0xE0002000) -- CPU_ReadMem(4 bytes @ 0xE000EDFC) -- CPU_ReadMem(4 bytes @ 0xE0001000) (0085ms, 4084ms total)
T0898 2585:571 JLINK_Halt()  returns 0x00 (0000ms, 4085ms total)
T0898 2585:571 JLINK_ReadMemU32(0xE000EDF0, 0x0001 Items, ...) -- CPU_ReadMem(4 bytes @ 0xE000EDF0) - Data: 03 00 03 00  returns 1 (0001ms, 4086ms total)
T0898 2585:572 JLINK_WriteU32(0xE000EDF0, 0xA05F0003) -- CPU_WriteMem(4 bytes @ 0xE000EDF0)  returns 0 (0001ms, 4087ms total)
T0898 2585:573 JLINK_WriteU32(0xE000EDFC, 0x01000000) -- CPU_WriteMem(4 bytes @ 0xE000EDFC)  returns 0 (0000ms, 4087ms total)
T0898 2585:598 JLINK_GetHWStatus(...)  returns 0x00 (0002ms, 4090ms total)
T0898 2585:615 JLINK_GetNumBPUnits(Type = 0xFFFFFF00)  returns 0x06 (0000ms, 4090ms total)
T0898 2585:615 JLINK_GetNumBPUnits(Type = 0xF0)  returns 0x2000 (0000ms, 4090ms total)
T0898 2585:615 JLINK_GetNumWPUnits()  returns 0x04 (0000ms, 4090ms total)
T0898 2585:630 JLINK_GetSpeed()  returns 0xBB8 (0000ms, 4090ms total)
T0898 2585:640 JLINK_ReadMemU32(0xE000E004, 0x0001 Items, ...) -- CPU_ReadMem(4 bytes @ 0xE000E004) - Data: 01 00 00 00  returns 1 (0002ms, 4092ms total)
T0898 2585:642 JLINK_ReadMemU32(0xE000E004, 0x0001 Items, ...) -- CPU_ReadMem(4 bytes @ 0xE000E004) - Data: 01 00 00 00  returns 1 (0001ms, 4093ms total)
T0898 2585:643 JLINK_WriteMemEx(0xE0001000, 0x001C Bytes, ..., Flags = 0x02000004) - Data: 01 00 00 00 00 00 00 00 00 00 00 00 00 00 00 00 ... -- CPU_WriteMem(28 bytes @ 0xE0001000)  returns 0x1C (0002ms, 4095ms total)
T0898 2585:645 JLINK_Halt()  returns 0x00 (0000ms, 4095ms total)
T0898 2585:645 JLINK_IsHalted()  returns TRUE (0000ms, 4095ms total)
T0898 2585:649 JLINK_WriteMem(0x20000000, 0x0164 Bytes, ...) - Data: 00 BE 0A E0 0D 78 2D 06 68 40 08 24 40 00 00 D3 ... -- CPU_WriteMem(356 bytes @ 0x20000000)  returns 0x164 (0004ms, 4099ms total)
T0898 2585:653 JLINK_WriteReg(R0, 0x08000000)  returns 0x00 (0000ms, 4099ms total)
T0898 2585:653 JLINK_WriteReg(R1, 0x044AA200)  returns 0x00 (0000ms, 4099ms total)
T0898 2585:653 JLINK_WriteReg(R2, 0x00000001)  returns 0x00 (0000ms, 4099ms total)
T0898 2585:653 JLINK_WriteReg(R3, 0x00000000)  returns 0x00 (0000ms, 4099ms total)
T0898 2585:653 JLINK_WriteReg(R4, 0x00000000)  returns 0x00 (0000ms, 4099ms total)
T0898 2585:653 JLINK_WriteReg(R5, 0x00000000)  returns 0x00 (0000ms, 4099ms total)
T0898 2585:653 JLINK_WriteReg(R6, 0x00000000)  returns 0x00 (0000ms, 4099ms total)
T0898 2585:653 JLINK_WriteReg(R7, 0x00000000)  returns 0x00 (0000ms, 4099ms total)
T0898 2585:653 JLINK_WriteReg(R8, 0x00000000)  returns 0x00 (0000ms, 4099ms total)
T0898 2585:653 JLINK_WriteReg(R9, 0x20000160)  returns 0x00 (0000ms, 4099ms total)
T0898 2585:653 JLINK_WriteReg(R10, 0x00000000)  returns 0x00 (0000ms, 4099ms total)
T0898 2585:653 JLINK_WriteReg(R11, 0x00000000)  returns 0x00 (0000ms, 4099ms total)
T0898 2585:653 JLINK_WriteReg(R12, 0x00000000)  returns 0x00 (0000ms, 4099ms total)
T0898 2585:653 JLINK_WriteReg(R13 (SP), 0x20001000)  returns 0x00 (0000ms, 4099ms total)
T0898 2585:653 JLINK_WriteReg(R14, 0x20000001)  returns 0x00 (0000ms, 4099ms total)
T0898 2585:653 JLINK_WriteReg(R15 (PC), 0x20000038)  returns 0x00 (0000ms, 4099ms total)
T0898 2585:653 JLINK_WriteReg(XPSR, 0x01000000)  returns 0x00 (0000ms, 4099ms total)
T0898 2585:653 JLINK_WriteReg(MSP, 0x20001000)  returns 0x00 (0000ms, 4099ms total)
T0898 2585:654 JLINK_WriteReg(PSP, 0x20001000)  returns 0x00 (0000ms, 4100ms total)
T0898 2585:654 JLINK_WriteReg(CFBP, 0x00000000)  returns 0x00 (0000ms, 4100ms total)
T0898 2585:654 JLINK_SetBPEx(Addr = 0x20000000, Type = 0xFFFFFFF2) -- CPU_ReadMem(2 bytes @ 0x20000000)  returns 0x00000001 (0001ms, 4101ms total)
T0898 2585:655 JLINK_Go() -- CPU_WriteMem(2 bytes @ 0x20000000) -- CPU_ReadMem(4 bytes @ 0xE0001000) -- CPU_WriteMem(4 bytes @ 0xE0002008) -- CPU_WriteMem(4 bytes @ 0xE000200C) -- CPU_WriteMem(4 bytes @ 0xE0002010) -- CPU_WriteMem(4 bytes @ 0xE0002014) -- CPU_WriteMem(4 bytes @ 0xE0002018) -- CPU_WriteMem(4 bytes @ 0xE000201C) -- CPU_WriteMem(4 bytes @ 0xE0001004) (0009ms, 4110ms total)
T0898 2585:664 JLINK_IsHalted() -- CPU_ReadMem(2 bytes @ 0x20000000)  returns TRUE (0005ms, 4115ms total)
T0898 2585:669 JLINK_ReadReg(R15 (PC))  returns 0x20000000 (0000ms, 4110ms total)
T0898 2585:669 JLINK_ClrBPEx(BPHandle = 0x00000001)  returns 0x00 (0000ms, 4110ms total)
T0898 2585:669 JLINK_ReadReg(R0)  returns 0x00000000 (0000ms, 4110ms total)
T0898 2585:669 JLINK_WriteReg(R0, 0x08000000)  returns 0x00 (0000ms, 4110ms total)
T0898 2585:669 JLINK_WriteReg(R1, 0x044AA200)  returns 0x00 (0000ms, 4110ms total)
T0898 2585:669 JLINK_WriteReg(R2, 0x00000001)  returns 0x00 (0000ms, 4110ms total)
T0898 2585:669 JLINK_WriteReg(R3, 0x00000000)  returns 0x00 (0000ms, 4110ms total)
T0898 2585:669 JLINK_WriteReg(R4, 0x00000000)  returns 0x00 (0001ms, 4111ms total)
T0898 2585:670 JLINK_WriteReg(R5, 0x00000000)  returns 0x00 (0000ms, 4111ms total)
T0898 2585:670 JLINK_WriteReg(R6, 0x00000000)  returns 0x00 (0000ms, 4111ms total)
T0898 2585:670 JLINK_WriteReg(R7, 0x00000000)  returns 0x00 (0000ms, 4111ms total)
T0898 2585:670 JLINK_WriteReg(R8, 0x00000000)  returns 0x00 (0000ms, 4111ms total)
T0898 2585:670 JLINK_WriteReg(R9, 0x20000160)  returns 0x00 (0000ms, 4111ms total)
T0898 2585:670 JLINK_WriteReg(R10, 0x00000000)  returns 0x00 (0000ms, 4111ms total)
T0898 2585:670 JLINK_WriteReg(R11, 0x00000000)  returns 0x00 (0000ms, 4111ms total)
T0898 2585:670 JLINK_WriteReg(R12, 0x00000000)  returns 0x00 (0000ms, 4111ms total)
T0898 2585:670 JLINK_WriteReg(R13 (SP), 0x20001000)  returns 0x00 (0000ms, 4111ms total)
T0898 2585:670 JLINK_WriteReg(R14, 0x20000001)  returns 0x00 (0000ms, 4111ms total)
T0898 2585:670 JLINK_WriteReg(R15 (PC), 0x2000007C)  returns 0x00 (0000ms, 4111ms total)
T0898 2585:670 JLINK_WriteReg(XPSR, 0x01000000)  returns 0x00 (0000ms, 4111ms total)
T0898 2585:670 JLINK_WriteReg(MSP, 0x20001000)  returns 0x00 (0000ms, 4111ms total)
T0898 2585:670 JLINK_WriteReg(PSP, 0x20001000)  returns 0x00 (0000ms, 4111ms total)
T0898 2585:670 JLINK_WriteReg(CFBP, 0x00000000)  returns 0x00 (0000ms, 4111ms total)
T0898 2585:670 JLINK_SetBPEx(Addr = 0x20000000, Type = 0xFFFFFFF2)  returns 0x00000002 (0000ms, 4111ms total)
T0898 2585:670 JLINK_Go() -- CPU_ReadMem(4 bytes @ 0xE0001000) (0006ms, 4117ms total)
T0898 2585:676 JLINK_IsHalted()  returns FALSE (0001ms, 4118ms total)
T0898 2585:736 JLINK_IsHalted() -- CPU_ReadMem(2 bytes @ 0x20000000)  returns TRUE (0004ms, 4121ms total)
T0898 2585:740 JLINK_ReadReg(R15 (PC))  returns 0x20000000 (0000ms, 4117ms total)
T0898 2585:740 JLINK_ClrBPEx(BPHandle = 0x00000002)  returns 0x00 (0000ms, 4117ms total)
T0898 2585:740 JLINK_ReadReg(R0)  returns 0x00000000 (0000ms, 4117ms total)
T0898 2585:792 JLINK_WriteReg(R0, 0x00000001)  returns 0x00 (0000ms, 4117ms total)
T0898 2585:792 JLINK_WriteReg(R1, 0x044AA200)  returns 0x00 (0000ms, 4117ms total)
T0898 2585:792 JLINK_WriteReg(R2, 0x00000001)  returns 0x00 (0000ms, 4117ms total)
T0898 2585:792 JLINK_WriteReg(R3, 0x00000000)  returns 0x00 (0000ms, 4117ms total)
T0898 2585:792 JLINK_WriteReg(R4, 0x00000000)  returns 0x00 (0000ms, 4117ms total)
T0898 2585:792 JLINK_WriteReg(R5, 0x00000000)  returns 0x00 (0000ms, 4117ms total)
T0898 2585:792 JLINK_WriteReg(R6, 0x00000000)  returns 0x00 (0000ms, 4117ms total)
T0898 2585:792 JLINK_WriteReg(R7, 0x00000000)  returns 0x00 (0000ms, 4117ms total)
T0898 2585:792 JLINK_WriteReg(R8, 0x00000000)  returns 0x00 (0000ms, 4117ms total)
T0898 2585:792 JLINK_WriteReg(R9, 0x20000160)  returns 0x00 (0000ms, 4117ms total)
T0898 2585:792 JLINK_WriteReg(R10, 0x00000000)  returns 0x00 (0000ms, 4117ms total)
T0898 2585:792 JLINK_WriteReg(R11, 0x00000000)  returns 0x00 (0000ms, 4117ms total)
T0898 2585:792 JLINK_WriteReg(R12, 0x00000000)  returns 0x00 (0000ms, 4117ms total)
T0898 2585:792 JLINK_WriteReg(R13 (SP), 0x20001000)  returns 0x00 (0000ms, 4117ms total)
T0898 2585:792 JLINK_WriteReg(R14, 0x20000001)  returns 0x00 (0001ms, 4118ms total)
T0898 2585:793 JLINK_WriteReg(R15 (PC), 0x2000006A)  returns 0x00 (0000ms, 4118ms total)
T0898 2585:793 JLINK_WriteReg(XPSR, 0x01000000)  returns 0x00 (0000ms, 4118ms total)
T0898 2585:793 JLINK_WriteReg(MSP, 0x20001000)  returns 0x00 (0000ms, 4118ms total)
T0898 2585:793 JLINK_WriteReg(PSP, 0x20001000)  returns 0x00 (0000ms, 4118ms total)
T0898 2585:793 JLINK_WriteReg(CFBP, 0x00000000)  returns 0x00 (0000ms, 4118ms total)
T0898 2585:793 JLINK_SetBPEx(Addr = 0x20000000, Type = 0xFFFFFFF2)  returns 0x00000003 (0000ms, 4118ms total)
T0898 2585:793 JLINK_Go() -- CPU_ReadMem(4 bytes @ 0xE0001000) (0006ms, 4124ms total)
T0898 2585:799 JLINK_IsHalted() -- CPU_ReadMem(2 bytes @ 0x20000000)  returns TRUE (0005ms, 4129ms total)
T0898 2585:804 JLINK_ReadReg(R15 (PC))  returns 0x20000000 (0000ms, 4124ms total)
T0898 2585:804 JLINK_ClrBPEx(BPHandle = 0x00000003)  returns 0x00 (0000ms, 4124ms total)
T0898 2585:804 JLINK_ReadReg(R0)  returns 0x00000000 (0000ms, 4124ms total)
T0898 2585:812 JLINK_WriteMem(0x20000000, 0x0164 Bytes, ...) - Data: 00 BE 0A E0 0D 78 2D 06 68 40 08 24 40 00 00 D3 ... -- CPU_WriteMem(356 bytes @ 0x20000000)  returns 0x164 (0004ms, 4128ms total)
T0898 2585:816 JLINK_WriteReg(R0, 0x08000000)  returns 0x00 (0000ms, 4128ms total)
T0898 2585:816 JLINK_WriteReg(R1, 0x044AA200)  returns 0x00 (0000ms, 4128ms total)
T0898 2585:816 JLINK_WriteReg(R2, 0x00000002)  returns 0x00 (0000ms, 4128ms total)
T0898 2585:816 JLINK_WriteReg(R3, 0x00000000)  returns 0x00 (0000ms, 4128ms total)
T0898 2585:816 JLINK_WriteReg(R4, 0x00000000)  returns 0x00 (0000ms, 4128ms total)
T0898 2585:816 JLINK_WriteReg(R5, 0x00000000)  returns 0x00 (0000ms, 4128ms total)
T0898 2585:816 JLINK_WriteReg(R6, 0x00000000)  returns 0x00 (0000ms, 4128ms total)
T0898 2585:816 JLINK_WriteReg(R7, 0x00000000)  returns 0x00 (0000ms, 4128ms total)
T0898 2585:816 JLINK_WriteReg(R8, 0x00000000)  returns 0x00 (0000ms, 4128ms total)
T0898 2585:816 JLINK_WriteReg(R9, 0x20000160)  returns 0x00 (0000ms, 4128ms total)
T0898 2585:816 JLINK_WriteReg(R10, 0x00000000)  returns 0x00 (0000ms, 4128ms total)
T0898 2585:816 JLINK_WriteReg(R11, 0x00000000)  returns 0x00 (0000ms, 4128ms total)
T0898 2585:816 JLINK_WriteReg(R12, 0x00000000)  returns 0x00 (0000ms, 4128ms total)
T0898 2585:816 JLINK_WriteReg(R13 (SP), 0x20001000)  returns 0x00 (0000ms, 4128ms total)
T0898 2585:816 JLINK_WriteReg(R14, 0x20000001)  returns 0x00 (0000ms, 4128ms total)
T0898 2585:816 JLINK_WriteReg(R15 (PC), 0x20000038)  returns 0x00 (0000ms, 4128ms total)
T0898 2585:816 JLINK_WriteReg(XPSR, 0x01000000)  returns 0x00 (0000ms, 4128ms total)
T0898 2585:816 JLINK_WriteReg(MSP, 0x20001000)  returns 0x00 (0001ms, 4129ms total)
T0898 2585:817 JLINK_WriteReg(PSP, 0x20001000)  returns 0x00 (0000ms, 4129ms total)
T0898 2585:817 JLINK_WriteReg(CFBP, 0x00000000)  returns 0x00 (0000ms, 4129ms total)
T0898 2585:817 JLINK_SetBPEx(Addr = 0x20000000, Type = 0xFFFFFFF2) -- CPU_ReadMem(2 bytes @ 0x20000000)  returns 0x00000004 (0001ms, 4130ms total)
T0898 2585:818 JLINK_Go() -- CPU_WriteMem(2 bytes @ 0x20000000) -- CPU_ReadMem(4 bytes @ 0xE0001000) (0005ms, 4135ms total)
T0898 2585:823 JLINK_IsHalted() -- CPU_ReadMem(2 bytes @ 0x20000000)  returns TRUE (0005ms, 4140ms total)
T0898 2585:828 JLINK_ReadReg(R15 (PC))  returns 0x20000000 (0000ms, 4135ms total)
T0898 2585:828 JLINK_ClrBPEx(BPHandle = 0x00000004)  returns 0x00 (0000ms, 4135ms total)
T0898 2585:828 JLINK_ReadReg(R0)  returns 0x00000000 (0000ms, 4135ms total)
T0898 2585:828 JLINK_WriteMem(0x20000164, 0x029C Bytes, ...) - Data: 50 15 00 20 01 01 00 08 09 01 00 08 0B 01 00 08 ... -- CPU_WriteMem(668 bytes @ 0x20000164)  returns 0x29C (0006ms, 4141ms total)
T0898 2585:834 JLINK_WriteMem(0x20000400, 0x0164 Bytes, ...) - Data: 03 F0 F4 FF 04 68 05 46 0A 22 00 21 30 46 00 F0 ... -- CPU_WriteMem(356 bytes @ 0x20000400)  returns 0x164 (0002ms, 4143ms total)
T0898 2585:836 JLINK_WriteReg(R0, 0x08000000)  returns 0x00 (0000ms, 4143ms total)
T0898 2585:836 JLINK_WriteReg(R1, 0x00000400)  returns 0x00 (0001ms, 4144ms total)
T0898 2585:837 JLINK_WriteReg(R2, 0x20000164)  returns 0x00 (0000ms, 4144ms total)
T0898 2585:837 JLINK_WriteReg(R3, 0x00000000)  returns 0x00 (0000ms, 4144ms total)
T0898 2585:837 JLINK_WriteReg(R4, 0x00000000)  returns 0x00 (0000ms, 4144ms total)
T0898 2585:837 JLINK_WriteReg(R5, 0x00000000)  returns 0x00 (0000ms, 4144ms total)
T0898 2585:837 JLINK_WriteReg(R6, 0x00000000)  returns 0x00 (0000ms, 4144ms total)
T0898 2585:837 JLINK_WriteReg(R7, 0x00000000)  returns 0x00 (0000ms, 4144ms total)
T0898 2585:837 JLINK_WriteReg(R8, 0x00000000)  returns 0x00 (0000ms, 4144ms total)
T0898 2585:837 JLINK_WriteReg(R9, 0x20000160)  returns 0x00 (0000ms, 4144ms total)
T0898 2585:837 JLINK_WriteReg(R10, 0x00000000)  returns 0x00 (0000ms, 4144ms total)
T0898 2585:837 JLINK_WriteReg(R11, 0x00000000)  returns 0x00 (0000ms, 4144ms total)
T0898 2585:837 JLINK_WriteReg(R12, 0x00000000)  returns 0x00 (0000ms, 4144ms total)
T0898 2585:837 JLINK_WriteReg(R13 (SP), 0x20001000)  returns 0x00 (0000ms, 4144ms total)
T0898 2585:837 JLINK_WriteReg(R14, 0x20000001)  returns 0x00 (0000ms, 4144ms total)
T0898 2585:837 JLINK_WriteReg(R15 (PC), 0x200000F4)  returns 0x00 (0000ms, 4144ms total)
T0898 2585:837 JLINK_WriteReg(XPSR, 0x01000000)  returns 0x00 (0000ms, 4144ms total)
T0898 2585:837 JLINK_WriteReg(MSP, 0x20001000)  returns 0x00 (0000ms, 4144ms total)
T0898 2585:837 JLINK_WriteReg(PSP, 0x20001000)  returns 0x00 (0000ms, 4144ms total)
T0898 2585:837 JLINK_WriteReg(CFBP, 0x00000000)  returns 0x00 (0000ms, 4144ms total)
T0898 2585:837 JLINK_SetBPEx(Addr = 0x20000000, Type = 0xFFFFFFF2)  returns 0x00000005 (0000ms, 4144ms total)
T0898 2585:837 JLINK_Go() -- CPU_ReadMem(4 bytes @ 0xE0001000) (0006ms, 4150ms total)
T0898 2585:843 JLINK_IsHalted()  returns FALSE (0001ms, 4151ms total)
T0898 2585:854 JLINK_IsHalted()  returns FALSE (0001ms, 4151ms total)
T0898 2585:857 JLINK_IsHalted()  returns FALSE (0001ms, 4151ms total)
T0898 2585:860 JLINK_IsHalted()  returns FALSE (0001ms, 4151ms total)
T0898 2585:863 JLINK_IsHalted()  returns FALSE (0001ms, 4151ms total)
T0898 2585:866 JLINK_IsHalted()  returns FALSE (0001ms, 4151ms total)
T0898 2585:871 JLINK_IsHalted()  returns FALSE (0001ms, 4151ms total)
T0898 2585:874 JLINK_IsHalted() -- CPU_ReadMem(2 bytes @ 0x20000000)  returns TRUE (0005ms, 4155ms total)
T0898 2585:879 JLINK_ReadReg(R15 (PC))  returns 0x20000000 (0000ms, 4150ms total)
T0898 2585:879 JLINK_ClrBPEx(BPHandle = 0x00000005)  returns 0x00 (0000ms, 4150ms total)
T0898 2585:879 JLINK_ReadReg(R0)  returns 0x00000000 (0000ms, 4150ms total)
T0898 2585:880 JLINK_WriteMem(0x20000164, 0x029C Bytes, ...) - Data: 2D E9 F0 4D 81 EA 03 04 04 F0 00 4B 21 F0 00 45 ... -- CPU_WriteMem(668 bytes @ 0x20000164)  returns 0x29C (0004ms, 4154ms total)
T0898 2585:884 JLINK_WriteMem(0x20000400, 0x0164 Bytes, ...) - Data: 10 BD 2D E9 F0 4D 92 46 9B 46 11 B1 B1 FA 81 F2 ... -- CPU_WriteMem(356 bytes @ 0x20000400)  returns 0x164 (0003ms, 4157ms total)
T0898 2585:887 JLINK_WriteReg(R0, 0x08000400)  returns 0x00 (0000ms, 4157ms total)
T0898 2585:887 JLINK_WriteReg(R1, 0x00000400)  returns 0x00 (0000ms, 4157ms total)
T0898 2585:887 JLINK_WriteReg(R2, 0x20000164)  returns 0x00 (0000ms, 4157ms total)
T0898 2585:887 JLINK_WriteReg(R3, 0x00000000)  returns 0x00 (0000ms, 4157ms total)
T0898 2585:887 JLINK_WriteReg(R4, 0x00000000)  returns 0x00 (0000ms, 4157ms total)
T0898 2585:887 JLINK_WriteReg(R5, 0x00000000)  returns 0x00 (0000ms, 4157ms total)
T0898 2585:887 JLINK_WriteReg(R6, 0x00000000)  returns 0x00 (0000ms, 4157ms total)
T0898 2585:887 JLINK_WriteReg(R7, 0x00000000)  returns 0x00 (0000ms, 4157ms total)
T0898 2585:887 JLINK_WriteReg(R8, 0x00000000)  returns 0x00 (0000ms, 4157ms total)
T0898 2585:887 JLINK_WriteReg(R9, 0x20000160)  returns 0x00 (0000ms, 4157ms total)
T0898 2585:887 JLINK_WriteReg(R10, 0x00000000)  returns 0x00 (0000ms, 4157ms total)
T0898 2585:887 JLINK_WriteReg(R11, 0x00000000)  returns 0x00 (0000ms, 4157ms total)
T0898 2585:887 JLINK_WriteReg(R12, 0x00000000)  returns 0x00 (0000ms, 4157ms total)
T0898 2585:887 JLINK_WriteReg(R13 (SP), 0x20001000)  returns 0x00 (0000ms, 4157ms total)
T0898 2585:887 JLINK_WriteReg(R14, 0x20000001)  returns 0x00 (0000ms, 4157ms total)
T0898 2585:887 JLINK_WriteReg(R15 (PC), 0x200000F4)  returns 0x00 (0000ms, 4157ms total)
T0898 2585:887 JLINK_WriteReg(XPSR, 0x01000000)  returns 0x00 (0000ms, 4157ms total)
T0898 2585:887 JLINK_WriteReg(MSP, 0x20001000)  returns 0x00 (0000ms, 4157ms total)
T0898 2585:888 JLINK_WriteReg(PSP, 0x20001000)  returns 0x00 (0000ms, 4158ms total)
T0898 2585:888 JLINK_WriteReg(CFBP, 0x00000000)  returns 0x00 (0000ms, 4158ms total)
T0898 2585:888 JLINK_SetBPEx(Addr = 0x20000000, Type = 0xFFFFFFF2)  returns 0x00000006 (0000ms, 4158ms total)
T0898 2585:888 JLINK_Go() -- CPU_ReadMem(4 bytes @ 0xE0001000) (0005ms, 4163ms total)
T0898 2585:893 JLINK_IsHalted()  returns FALSE (0001ms, 4164ms total)
T0898 2585:898 JLINK_IsHalted()  returns FALSE (0001ms, 4164ms total)
T0898 2585:901 JLINK_IsHalted()  returns FALSE (0001ms, 4164ms total)
T0898 2585:904 JLINK_IsHalted()  returns FALSE (0001ms, 4164ms total)
T0898 2585:907 JLINK_IsHalted()  returns FALSE (0001ms, 4164ms total)
T0898 2585:910 JLINK_IsHalted()  returns FALSE (0001ms, 4164ms total)
T0898 2585:913 JLINK_IsHalted()  returns FALSE (0001ms, 4164ms total)
T0898 2585:916 JLINK_IsHalted()  returns FALSE (0001ms, 4164ms total)
T0898 2585:919 JLINK_IsHalted()  returns FALSE (0001ms, 4164ms total)
T0898 2585:922 JLINK_IsHalted()  returns FALSE (0001ms, 4164ms total)
T0898 2585:925 JLINK_IsHalted() -- CPU_ReadMem(2 bytes @ 0x20000000)  returns TRUE (0005ms, 4168ms total)
T0898 2585:930 JLINK_ReadReg(R15 (PC))  returns 0x20000000 (0000ms, 4163ms total)
T0898 2585:930 JLINK_ClrBPEx(BPHandle = 0x00000006)  returns 0x00 (0000ms, 4163ms total)
T0898 2585:930 JLINK_ReadReg(R0)  returns 0x00000000 (0000ms, 4163ms total)
T0898 2585:931 JLINK_WriteMem(0x20000164, 0x029C Bytes, ...) - Data: 48 EA 06 40 FA E7 3A 28 00 D2 30 38 20 F0 20 02 ... -- CPU_WriteMem(668 bytes @ 0x20000164)  returns 0x29C (0005ms, 4168ms total)
T0898 2585:936 JLINK_WriteMem(0x20000400, 0x0164 Bytes, ...) - Data: 12 4C 02 68 A2 42 17 D1 94 68 24 02 19 D4 94 68 ... -- CPU_WriteMem(356 bytes @ 0x20000400)  returns 0x164 (0003ms, 4171ms total)
T0898 2585:939 JLINK_WriteReg(R0, 0x08000800)  returns 0x00 (0000ms, 4171ms total)
T0898 2585:939 JLINK_WriteReg(R1, 0x00000400)  returns 0x00 (0000ms, 4171ms total)
T0898 2585:939 JLINK_WriteReg(R2, 0x20000164)  returns 0x00 (0000ms, 4171ms total)
T0898 2585:939 JLINK_WriteReg(R3, 0x00000000)  returns 0x00 (0000ms, 4171ms total)
T0898 2585:939 JLINK_WriteReg(R4, 0x00000000)  returns 0x00 (0000ms, 4171ms total)
T0898 2585:939 JLINK_WriteReg(R5, 0x00000000)  returns 0x00 (0000ms, 4171ms total)
T0898 2585:939 JLINK_WriteReg(R6, 0x00000000)  returns 0x00 (0000ms, 4171ms total)
T0898 2585:939 JLINK_WriteReg(R7, 0x00000000)  returns 0x00 (0000ms, 4171ms total)
T0898 2585:939 JLINK_WriteReg(R8, 0x00000000)  returns 0x00 (0000ms, 4171ms total)
T0898 2585:939 JLINK_WriteReg(R9, 0x20000160)  returns 0x00 (0000ms, 4171ms total)
T0898 2585:939 JLINK_WriteReg(R10, 0x00000000)  returns 0x00 (0001ms, 4172ms total)
T0898 2585:940 JLINK_WriteReg(R11, 0x00000000)  returns 0x00 (0000ms, 4172ms total)
T0898 2585:940 JLINK_WriteReg(R12, 0x00000000)  returns 0x00 (0000ms, 4172ms total)
T0898 2585:940 JLINK_WriteReg(R13 (SP), 0x20001000)  returns 0x00 (0000ms, 4172ms total)
T0898 2585:940 JLINK_WriteReg(R14, 0x20000001)  returns 0x00 (0000ms, 4172ms total)
T0898 2585:940 JLINK_WriteReg(R15 (PC), 0x200000F4)  returns 0x00 (0000ms, 4172ms total)
T0898 2585:940 JLINK_WriteReg(XPSR, 0x01000000)  returns 0x00 (0000ms, 4172ms total)
T0898 2585:940 JLINK_WriteReg(MSP, 0x20001000)  returns 0x00 (0000ms, 4172ms total)
T0898 2585:940 JLINK_WriteReg(PSP, 0x20001000)  returns 0x00 (0000ms, 4172ms total)
T0898 2585:940 JLINK_WriteReg(CFBP, 0x00000000)  returns 0x00 (0000ms, 4172ms total)
T0898 2585:940 JLINK_SetBPEx(Addr = 0x20000000, Type = 0xFFFFFFF2)  returns 0x00000007 (0000ms, 4172ms total)
T0898 2585:940 JLINK_Go() -- CPU_ReadMem(4 bytes @ 0xE0001000) (0005ms, 4177ms total)
T0898 2585:946 JLINK_IsHalted()  returns FALSE (0001ms, 4179ms total)
T0898 2585:955 JLINK_IsHalted()  returns FALSE (0001ms, 4179ms total)
T0898 2585:958 JLINK_IsHalted()  returns FALSE (0001ms, 4179ms total)
T0898 2585:961 JLINK_IsHalted()  returns FALSE (0001ms, 4179ms total)
T0898 2585:964 JLINK_IsHalted()  returns FALSE (0001ms, 4179ms total)
T0898 2585:967 JLINK_IsHalted()  returns FALSE (0000ms, 4178ms total)
T0898 2585:970 JLINK_IsHalted()  returns FALSE (0001ms, 4179ms total)
T0898 2585:973 JLINK_IsHalted()  returns FALSE (0001ms, 4179ms total)
T0898 2585:976 JLINK_IsHalted()  returns FALSE (0000ms, 4178ms total)
T0898 2585:979 JLINK_IsHalted() -- CPU_ReadMem(2 bytes @ 0x20000000)  returns TRUE (0005ms, 4183ms total)
T0898 2585:984 JLINK_ReadReg(R15 (PC))  returns 0x20000000 (0000ms, 4178ms total)
T0898 2585:984 JLINK_ClrBPEx(BPHandle = 0x00000007)  returns 0x00 (0000ms, 4178ms total)
T0898 2585:984 JLINK_ReadReg(R0)  returns 0x00000000 (0000ms, 4178ms total)
T0898 2585:985 JLINK_WriteMem(0x20000164, 0x029C Bytes, ...) - Data: FF F7 0F FE A1 6A C9 06 00 D4 20 B1 A0 6A 40 F0 ... -- CPU_WriteMem(668 bytes @ 0x20000164)  returns 0x29C (0004ms, 4182ms total)
T0898 2585:989 JLINK_WriteMem(0x20000400, 0x0164 Bytes, ...) - Data: A0 62 84 F8 24 80 03 20 A6 E7 00 98 40 1C 00 90 ... -- CPU_WriteMem(356 bytes @ 0x20000400)  returns 0x164 (0003ms, 4185ms total)
T0898 2585:992 JLINK_WriteReg(R0, 0x08000C00)  returns 0x00 (0000ms, 4185ms total)
T0898 2585:992 JLINK_WriteReg(R1, 0x00000400)  returns 0x00 (0000ms, 4185ms total)
T0898 2585:992 JLINK_WriteReg(R2, 0x20000164)  returns 0x00 (0000ms, 4185ms total)
T0898 2585:992 JLINK_WriteReg(R3, 0x00000000)  returns 0x00 (0000ms, 4185ms total)
T0898 2585:992 JLINK_WriteReg(R4, 0x00000000)  returns 0x00 (0000ms, 4185ms total)
T0898 2585:992 JLINK_WriteReg(R5, 0x00000000)  returns 0x00 (0000ms, 4185ms total)
T0898 2585:992 JLINK_WriteReg(R6, 0x00000000)  returns 0x00 (0000ms, 4185ms total)
T0898 2585:992 JLINK_WriteReg(R7, 0x00000000)  returns 0x00 (0000ms, 4185ms total)
T0898 2585:992 JLINK_WriteReg(R8, 0x00000000)  returns 0x00 (0000ms, 4185ms total)
T0898 2585:992 JLINK_WriteReg(R9, 0x20000160)  returns 0x00 (0000ms, 4185ms total)
T0898 2585:992 JLINK_WriteReg(R10, 0x00000000)  returns 0x00 (0000ms, 4185ms total)
T0898 2585:992 JLINK_WriteReg(R11, 0x00000000)  returns 0x00 (0000ms, 4185ms total)
T0898 2585:992 JLINK_WriteReg(R12, 0x00000000)  returns 0x00 (0000ms, 4185ms total)
T0898 2585:992 JLINK_WriteReg(R13 (SP), 0x20001000)  returns 0x00 (0000ms, 4185ms total)
T0898 2585:992 JLINK_WriteReg(R14, 0x20000001)  returns 0x00 (0000ms, 4185ms total)
T0898 2585:992 JLINK_WriteReg(R15 (PC), 0x200000F4)  returns 0x00 (0000ms, 4185ms total)
T0898 2585:992 JLINK_WriteReg(XPSR, 0x01000000)  returns 0x00 (0000ms, 4185ms total)
T0898 2585:992 JLINK_WriteReg(MSP, 0x20001000)  returns 0x00 (0001ms, 4186ms total)
T0898 2585:993 JLINK_WriteReg(PSP, 0x20001000)  returns 0x00 (0000ms, 4186ms total)
T0898 2585:993 JLINK_WriteReg(CFBP, 0x00000000)  returns 0x00 (0000ms, 4186ms total)
T0898 2585:993 JLINK_SetBPEx(Addr = 0x20000000, Type = 0xFFFFFFF2)  returns 0x00000008 (0000ms, 4186ms total)
T0898 2585:993 JLINK_Go() -- CPU_ReadMem(4 bytes @ 0xE0001000) (0005ms, 4191ms total)
T0898 2585:998 JLINK_IsHalted()  returns FALSE (0001ms, 4192ms total)
T0898 2586:001 JLINK_IsHalted()  returns FALSE (0001ms, 4192ms total)
T0898 2586:004 JLINK_IsHalted()  returns FALSE (0001ms, 4192ms total)
T0898 2586:007 JLINK_IsHalted()  returns FALSE (0001ms, 4192ms total)
T0898 2586:010 JLINK_IsHalted()  returns FALSE (0001ms, 4192ms total)
T0898 2586:013 JLINK_IsHalted()  returns FALSE (0001ms, 4192ms total)
T0898 2586:016 JLINK_IsHalted()  returns FALSE (0001ms, 4192ms total)
T0898 2586:019 JLINK_IsHalted()  returns FALSE (0001ms, 4192ms total)
T0898 2586:022 JLINK_IsHalted()  returns FALSE (0001ms, 4192ms total)
T0898 2586:025 JLINK_IsHalted()  returns FALSE (0001ms, 4192ms total)
T0898 2586:028 JLINK_IsHalted()  returns FALSE (0001ms, 4192ms total)
T0898 2586:031 JLINK_IsHalted() -- CPU_ReadMem(2 bytes @ 0x20000000)  returns TRUE (0005ms, 4196ms total)
T0898 2586:036 JLINK_ReadReg(R15 (PC))  returns 0x20000000 (0000ms, 4191ms total)
T0898 2586:036 JLINK_ClrBPEx(BPHandle = 0x00000008)  returns 0x00 (0000ms, 4191ms total)
T0898 2586:036 JLINK_ReadReg(R0)  returns 0x00000000 (0000ms, 4191ms total)
T0898 2586:036 JLINK_WriteMem(0x20000164, 0x029C Bytes, ...) - Data: D0 F9 00 20 10 BD 00 00 00 10 02 40 31 B5 00 F0 ... -- CPU_WriteMem(668 bytes @ 0x20000164)  returns 0x29C (0005ms, 4196ms total)
T0898 2586:041 JLINK_WriteMem(0x20000400, 0x0164 Bytes, ...) - Data: 00 E0 96 43 2E 60 64 1C 10 2C FF F4 3D AF BD E8 ... -- CPU_WriteMem(356 bytes @ 0x20000400)  returns 0x164 (0003ms, 4199ms total)
T0898 2586:044 JLINK_WriteReg(R0, 0x08001000)  returns 0x00 (0000ms, 4199ms total)
T0898 2586:044 JLINK_WriteReg(R1, 0x00000400)  returns 0x00 (0000ms, 4199ms total)
T0898 2586:044 JLINK_WriteReg(R2, 0x20000164)  returns 0x00 (0000ms, 4199ms total)
T0898 2586:044 JLINK_WriteReg(R3, 0x00000000)  returns 0x00 (0000ms, 4199ms total)
T0898 2586:044 JLINK_WriteReg(R4, 0x00000000)  returns 0x00 (0000ms, 4199ms total)
T0898 2586:044 JLINK_WriteReg(R5, 0x00000000)  returns 0x00 (0000ms, 4199ms total)
T0898 2586:044 JLINK_WriteReg(R6, 0x00000000)  returns 0x00 (0000ms, 4199ms total)
T0898 2586:044 JLINK_WriteReg(R7, 0x00000000)  returns 0x00 (0000ms, 4199ms total)
T0898 2586:044 JLINK_WriteReg(R8, 0x00000000)  returns 0x00 (0000ms, 4199ms total)
T0898 2586:044 JLINK_WriteReg(R9, 0x20000160)  returns 0x00 (0000ms, 4199ms total)
T0898 2586:044 JLINK_WriteReg(R10, 0x00000000)  returns 0x00 (0000ms, 4199ms total)
T0898 2586:044 JLINK_WriteReg(R11, 0x00000000)  returns 0x00 (0000ms, 4199ms total)
T0898 2586:044 JLINK_WriteReg(R12, 0x00000000)  returns 0x00 (0000ms, 4199ms total)
T0898 2586:044 JLINK_WriteReg(R13 (SP), 0x20001000)  returns 0x00 (0000ms, 4199ms total)
T0898 2586:044 JLINK_WriteReg(R14, 0x20000001)  returns 0x00 (0000ms, 4199ms total)
T0898 2586:044 JLINK_WriteReg(R15 (PC), 0x200000F4)  returns 0x00 (0000ms, 4199ms total)
T0898 2586:044 JLINK_WriteReg(XPSR, 0x01000000)  returns 0x00 (0000ms, 4199ms total)
T0898 2586:044 JLINK_WriteReg(MSP, 0x20001000)  returns 0x00 (0000ms, 4199ms total)
T0898 2586:045 JLINK_WriteReg(PSP, 0x20001000)  returns 0x00 (0000ms, 4200ms total)
T0898 2586:045 JLINK_WriteReg(CFBP, 0x00000000)  returns 0x00 (0000ms, 4200ms total)
T0898 2586:045 JLINK_SetBPEx(Addr = 0x20000000, Type = 0xFFFFFFF2)  returns 0x00000009 (0000ms, 4200ms total)
T0898 2586:045 JLINK_Go() -- CPU_ReadMem(4 bytes @ 0xE0001000) (0005ms, 4205ms total)
T0898 2586:050 JLINK_IsHalted()  returns FALSE (0001ms, 4206ms total)
T0898 2586:055 JLINK_IsHalted()  returns FALSE (0001ms, 4206ms total)
T0898 2586:058 JLINK_IsHalted()  returns FALSE (0001ms, 4206ms total)
T0898 2586:061 JLINK_IsHalted()  returns FALSE (0001ms, 4206ms total)
T0898 2586:064 JLINK_IsHalted()  returns FALSE (0001ms, 4206ms total)
T0898 2586:067 JLINK_IsHalted()  returns FALSE (0001ms, 4206ms total)
T0898 2586:070 JLINK_IsHalted()  returns FALSE (0001ms, 4206ms total)
T0898 2586:073 JLINK_IsHalted()  returns FALSE (0001ms, 4207ms total)
T0898 2586:076 JLINK_IsHalted()  returns FALSE (0001ms, 4207ms total)
T0898 2586:079 JLINK_IsHalted()  returns FALSE (0001ms, 4207ms total)
T0898 2586:082 JLINK_IsHalted() -- CPU_ReadMem(2 bytes @ 0x20000000)  returns TRUE (0005ms, 4211ms total)
T0898 2586:087 JLINK_ReadReg(R15 (PC))  returns 0x20000000 (0000ms, 4206ms total)
T0898 2586:087 JLINK_ClrBPEx(BPHandle = 0x00000009)  returns 0x00 (0000ms, 4206ms total)
T0898 2586:087 JLINK_ReadReg(R0)  returns 0x00000000 (0000ms, 4206ms total)
T0898 2586:088 JLINK_WriteMem(0x20000164, 0x029C Bytes, ...) - Data: 00 71 41 60 08 BD 00 00 00 10 02 40 00 00 01 40 ... -- CPU_WriteMem(668 bytes @ 0x20000164)  returns 0x29C (0004ms, 4210ms total)
T0898 2586:092 JLINK_WriteMem(0x20000400, 0x0164 Bytes, ...) - Data: 30 6A 61 68 20 F4 40 70 08 43 30 62 20 78 80 07 ... -- CPU_WriteMem(356 bytes @ 0x20000400)  returns 0x164 (0003ms, 4213ms total)
T0898 2586:095 JLINK_WriteReg(R0, 0x08001400)  returns 0x00 (0000ms, 4213ms total)
T0898 2586:095 JLINK_WriteReg(R1, 0x00000400)  returns 0x00 (0000ms, 4213ms total)
T0898 2586:095 JLINK_WriteReg(R2, 0x20000164)  returns 0x00 (0000ms, 4213ms total)
T0898 2586:095 JLINK_WriteReg(R3, 0x00000000)  returns 0x00 (0000ms, 4213ms total)
T0898 2586:095 JLINK_WriteReg(R4, 0x00000000)  returns 0x00 (0000ms, 4213ms total)
T0898 2586:095 JLINK_WriteReg(R5, 0x00000000)  returns 0x00 (0000ms, 4213ms total)
T0898 2586:095 JLINK_WriteReg(R6, 0x00000000)  returns 0x00 (0000ms, 4213ms total)
T0898 2586:095 JLINK_WriteReg(R7, 0x00000000)  returns 0x00 (0000ms, 4213ms total)
T0898 2586:095 JLINK_WriteReg(R8, 0x00000000)  returns 0x00 (0000ms, 4213ms total)
T0898 2586:095 JLINK_WriteReg(R9, 0x20000160)  returns 0x00 (0000ms, 4213ms total)
T0898 2586:095 JLINK_WriteReg(R10, 0x00000000)  returns 0x00 (0000ms, 4213ms total)
T0898 2586:095 JLINK_WriteReg(R11, 0x00000000)  returns 0x00 (0000ms, 4213ms total)
T0898 2586:095 JLINK_WriteReg(R12, 0x00000000)  returns 0x00 (0000ms, 4213ms total)
T0898 2586:095 JLINK_WriteReg(R13 (SP), 0x20001000)  returns 0x00 (0000ms, 4213ms total)
T0898 2586:095 JLINK_WriteReg(R14, 0x20000001)  returns 0x00 (0000ms, 4213ms total)
T0898 2586:095 JLINK_WriteReg(R15 (PC), 0x200000F4)  returns 0x00 (0000ms, 4213ms total)
T0898 2586:095 JLINK_WriteReg(XPSR, 0x01000000)  returns 0x00 (0000ms, 4213ms total)
T0898 2586:095 JLINK_WriteReg(MSP, 0x20001000)  returns 0x00 (0001ms, 4214ms total)
T0898 2586:096 JLINK_WriteReg(PSP, 0x20001000)  returns 0x00 (0000ms, 4214ms total)
T0898 2586:096 JLINK_WriteReg(CFBP, 0x00000000)  returns 0x00 (0000ms, 4214ms total)
T0898 2586:096 JLINK_SetBPEx(Addr = 0x20000000, Type = 0xFFFFFFF2)  returns 0x0000000A (0000ms, 4214ms total)
T0898 2586:096 JLINK_Go() -- CPU_ReadMem(4 bytes @ 0xE0001000) (0005ms, 4219ms total)
T0898 2586:101 JLINK_IsHalted()  returns FALSE (0001ms, 4220ms total)
T0898 2586:110 JLINK_IsHalted()  returns FALSE (0001ms, 4220ms total)
T0898 2586:113 JLINK_IsHalted()  returns FALSE (0001ms, 4220ms total)
T0898 2586:116 JLINK_IsHalted()  returns FALSE (0001ms, 4220ms total)
T0898 2586:119 JLINK_IsHalted()  returns FALSE (0001ms, 4220ms total)
T0898 2586:122 JLINK_IsHalted()  returns FALSE (0001ms, 4220ms total)
T0898 2586:125 JLINK_IsHalted()  returns FALSE (0001ms, 4220ms total)
T0898 2586:129 JLINK_IsHalted()  returns FALSE (0001ms, 4220ms total)
T0898 2586:132 JLINK_IsHalted() -- CPU_ReadMem(2 bytes @ 0x20000000)  returns TRUE (0005ms, 4224ms total)
T0898 2586:137 JLINK_ReadReg(R15 (PC))  returns 0x20000000 (0000ms, 4219ms total)
T0898 2586:137 JLINK_ClrBPEx(BPHandle = 0x0000000A)  returns 0x00 (0000ms, 4219ms total)
T0898 2586:137 JLINK_ReadReg(R0)  returns 0x00000000 (0000ms, 4219ms total)
T0898 2586:138 JLINK_WriteMem(0x20000164, 0x029C Bytes, ...) - Data: 0C 0F F6 D1 80 E0 21 78 89 07 05 D5 69 68 A2 68 ... -- CPU_WriteMem(668 bytes @ 0x20000164)  returns 0x29C (0004ms, 4223ms total)
T0898 2586:142 JLINK_WriteMem(0x20000400, 0x0164 Bytes, ...) - Data: 04 46 00 78 FB 4D C0 07 4F F0 01 06 25 D0 68 68 ... -- CPU_WriteMem(356 bytes @ 0x20000400)  returns 0x164 (0003ms, 4226ms total)
T0898 2586:145 JLINK_WriteReg(R0, 0x08001800)  returns 0x00 (0000ms, 4226ms total)
T0898 2586:145 JLINK_WriteReg(R1, 0x00000400)  returns 0x00 (0000ms, 4226ms total)
T0898 2586:145 JLINK_WriteReg(R2, 0x20000164)  returns 0x00 (0000ms, 4226ms total)
T0898 2586:145 JLINK_WriteReg(R3, 0x00000000)  returns 0x00 (0000ms, 4226ms total)
T0898 2586:145 JLINK_WriteReg(R4, 0x00000000)  returns 0x00 (0000ms, 4226ms total)
T0898 2586:145 JLINK_WriteReg(R5, 0x00000000)  returns 0x00 (0000ms, 4226ms total)
T0898 2586:145 JLINK_WriteReg(R6, 0x00000000)  returns 0x00 (0000ms, 4226ms total)
T0898 2586:145 JLINK_WriteReg(R7, 0x00000000)  returns 0x00 (0000ms, 4226ms total)
T0898 2586:145 JLINK_WriteReg(R8, 0x00000000)  returns 0x00 (0000ms, 4226ms total)
T0898 2586:145 JLINK_WriteReg(R9, 0x20000160)  returns 0x00 (0000ms, 4226ms total)
T0898 2586:145 JLINK_WriteReg(R10, 0x00000000)  returns 0x00 (0000ms, 4226ms total)
T0898 2586:145 JLINK_WriteReg(R11, 0x00000000)  returns 0x00 (0000ms, 4226ms total)
T0898 2586:145 JLINK_WriteReg(R12, 0x00000000)  returns 0x00 (0000ms, 4226ms total)
T0898 2586:145 JLINK_WriteReg(R13 (SP), 0x20001000)  returns 0x00 (0000ms, 4226ms total)
T0898 2586:145 JLINK_WriteReg(R14, 0x20000001)  returns 0x00 (0000ms, 4226ms total)
T0898 2586:145 JLINK_WriteReg(R15 (PC), 0x200000F4)  returns 0x00 (0000ms, 4226ms total)
T0898 2586:145 JLINK_WriteReg(XPSR, 0x01000000)  returns 0x00 (0000ms, 4226ms total)
T0898 2586:145 JLINK_WriteReg(MSP, 0x20001000)  returns 0x00 (0000ms, 4226ms total)
T0898 2586:145 JLINK_WriteReg(PSP, 0x20001000)  returns 0x00 (0000ms, 4226ms total)
T0898 2586:145 JLINK_WriteReg(CFBP, 0x00000000)  returns 0x00 (0000ms, 4226ms total)
T0898 2586:145 JLINK_SetBPEx(Addr = 0x20000000, Type = 0xFFFFFFF2)  returns 0x0000000B (0000ms, 4226ms total)
T0898 2586:145 JLINK_Go() -- CPU_ReadMem(4 bytes @ 0xE0001000) (0006ms, 4232ms total)
T0898 2586:151 JLINK_IsHalted()  returns FALSE (0001ms, 4233ms total)
T0898 2586:154 JLINK_IsHalted()  returns FALSE (0001ms, 4233ms total)
T0898 2586:157 JLINK_IsHalted()  returns FALSE (0001ms, 4233ms total)
T0898 2586:160 JLINK_IsHalted()  returns FALSE (0001ms, 4233ms total)
T0898 2586:164 JLINK_IsHalted()  returns FALSE (0001ms, 4233ms total)
T0898 2586:167 JLINK_IsHalted()  returns FALSE (0001ms, 4233ms total)
T0898 2586:170 JLINK_IsHalted()  returns FALSE (0001ms, 4233ms total)
T0898 2586:173 JLINK_IsHalted()  returns FALSE (0001ms, 4233ms total)
T0898 2586:176 JLINK_IsHalted()  returns FALSE (0001ms, 4233ms total)
T0898 2586:179 JLINK_IsHalted()  returns FALSE (0001ms, 4233ms total)
T0898 2586:182 JLINK_IsHalted() -- CPU_ReadMem(2 bytes @ 0x20000000)  returns TRUE (0005ms, 4237ms total)
T0898 2586:187 JLINK_ReadReg(R15 (PC))  returns 0x20000000 (0000ms, 4232ms total)
T0898 2586:187 JLINK_ClrBPEx(BPHandle = 0x0000000B)  returns 0x00 (0000ms, 4232ms total)
T0898 2586:187 JLINK_ReadReg(R0)  returns 0x00000000 (0000ms, 4232ms total)
T0898 2586:187 JLINK_WriteMem(0x20000164, 0x029C Bytes, ...) - Data: 20 78 DF F8 90 92 80 07 4F F0 00 0B 4F F0 02 07 ... -- CPU_WriteMem(668 bytes @ 0x20000164)  returns 0x29C (0005ms, 4237ms total)
T0898 2586:192 JLINK_WriteMem(0x20000400, 0x0164 Bytes, ...) - Data: 97 FA A7 F0 B0 FA 80 F0 40 F0 40 00 B7 EB 50 1F ... -- CPU_WriteMem(356 bytes @ 0x20000400)  returns 0x164 (0003ms, 4240ms total)
T0898 2586:195 JLINK_WriteReg(R0, 0x08001C00)  returns 0x00 (0000ms, 4240ms total)
T0898 2586:195 JLINK_WriteReg(R1, 0x00000400)  returns 0x00 (0000ms, 4240ms total)
T0898 2586:195 JLINK_WriteReg(R2, 0x20000164)  returns 0x00 (0000ms, 4240ms total)
T0898 2586:195 JLINK_WriteReg(R3, 0x00000000)  returns 0x00 (0000ms, 4240ms total)
T0898 2586:195 JLINK_WriteReg(R4, 0x00000000)  returns 0x00 (0000ms, 4240ms total)
T0898 2586:195 JLINK_WriteReg(R5, 0x00000000)  returns 0x00 (0000ms, 4240ms total)
T0898 2586:195 JLINK_WriteReg(R6, 0x00000000)  returns 0x00 (0000ms, 4240ms total)
T0898 2586:195 JLINK_WriteReg(R7, 0x00000000)  returns 0x00 (0000ms, 4240ms total)
T0898 2586:195 JLINK_WriteReg(R8, 0x00000000)  returns 0x00 (0000ms, 4240ms total)
T0898 2586:195 JLINK_WriteReg(R9, 0x20000160)  returns 0x00 (0000ms, 4240ms total)
T0898 2586:195 JLINK_WriteReg(R10, 0x00000000)  returns 0x00 (0000ms, 4240ms total)
T0898 2586:195 JLINK_WriteReg(R11, 0x00000000)  returns 0x00 (0000ms, 4240ms total)
T0898 2586:195 JLINK_WriteReg(R12, 0x00000000)  returns 0x00 (0000ms, 4240ms total)
T0898 2586:195 JLINK_WriteReg(R13 (SP), 0x20001000)  returns 0x00 (0000ms, 4240ms total)
T0898 2586:195 JLINK_WriteReg(R14, 0x20000001)  returns 0x00 (0000ms, 4240ms total)
T0898 2586:195 JLINK_WriteReg(R15 (PC), 0x200000F4)  returns 0x00 (0000ms, 4240ms total)
T0898 2586:195 JLINK_WriteReg(XPSR, 0x01000000)  returns 0x00 (0000ms, 4240ms total)
T0898 2586:195 JLINK_WriteReg(MSP, 0x20001000)  returns 0x00 (0000ms, 4240ms total)
T0898 2586:195 JLINK_WriteReg(PSP, 0x20001000)  returns 0x00 (0001ms, 4241ms total)
T0898 2586:196 JLINK_WriteReg(CFBP, 0x00000000)  returns 0x00 (0000ms, 4241ms total)
T0898 2586:196 JLINK_SetBPEx(Addr = 0x20000000, Type = 0xFFFFFFF2)  returns 0x0000000C (0000ms, 4241ms total)
T0898 2586:196 JLINK_Go() -- CPU_ReadMem(4 bytes @ 0xE0001000) (0005ms, 4246ms total)
T0898 2586:201 JLINK_IsHalted()  returns FALSE (0001ms, 4247ms total)
T0898 2586:204 JLINK_IsHalted()  returns FALSE (0001ms, 4247ms total)
T0898 2586:207 JLINK_IsHalted()  returns FALSE (0001ms, 4247ms total)
T0898 2586:210 JLINK_IsHalted()  returns FALSE (0001ms, 4247ms total)
T0898 2586:213 JLINK_IsHalted()  returns FALSE (0001ms, 4247ms total)
T0898 2586:216 JLINK_IsHalted()  returns FALSE (0001ms, 4247ms total)
T0898 2586:219 JLINK_IsHalted()  returns FALSE (0001ms, 4247ms total)
T0898 2586:222 JLINK_IsHalted()  returns FALSE (0001ms, 4247ms total)
T0898 2586:225 JLINK_IsHalted()  returns FALSE (0001ms, 4247ms total)
T0898 2586:228 JLINK_IsHalted()  returns FALSE (0001ms, 4247ms total)
T0898 2586:231 JLINK_IsHalted()  returns FALSE (0001ms, 4247ms total)
T0898 2586:234 JLINK_IsHalted() -- CPU_ReadMem(2 bytes @ 0x20000000)  returns TRUE (0005ms, 4251ms total)
T0898 2586:239 JLINK_ReadReg(R15 (PC))  returns 0x20000000 (0000ms, 4246ms total)
T0898 2586:239 JLINK_ClrBPEx(BPHandle = 0x0000000C)  returns 0x00 (0000ms, 4246ms total)
T0898 2586:239 JLINK_ReadReg(R0)  returns 0x00000000 (0000ms, 4246ms total)
T0898 2586:239 JLINK_WriteMem(0x20000164, 0x029C Bytes, ...) - Data: 64 28 55 D8 96 FA A6 F0 B0 FA 80 F0 40 F0 20 00 ... -- CPU_WriteMem(668 bytes @ 0x20000164)  returns 0x29C (0005ms, 4251ms total)
T0898 2586:244 JLINK_WriteMem(0x20000400, 0x0164 Bytes, ...) - Data: 51 00 65 65 A1 63 A2 87 E2 87 A5 64 E5 64 25 63 ... -- CPU_WriteMem(356 bytes @ 0x20000400)  returns 0x164 (0003ms, 4254ms total)
T0898 2586:247 JLINK_WriteReg(R0, 0x08002000)  returns 0x00 (0000ms, 4254ms total)
T0898 2586:247 JLINK_WriteReg(R1, 0x00000400)  returns 0x00 (0000ms, 4254ms total)
T0898 2586:247 JLINK_WriteReg(R2, 0x20000164)  returns 0x00 (0000ms, 4254ms total)
T0898 2586:247 JLINK_WriteReg(R3, 0x00000000)  returns 0x00 (0000ms, 4254ms total)
T0898 2586:247 JLINK_WriteReg(R4, 0x00000000)  returns 0x00 (0000ms, 4254ms total)
T0898 2586:247 JLINK_WriteReg(R5, 0x00000000)  returns 0x00 (0000ms, 4254ms total)
T0898 2586:247 JLINK_WriteReg(R6, 0x00000000)  returns 0x00 (0000ms, 4254ms total)
T0898 2586:247 JLINK_WriteReg(R7, 0x00000000)  returns 0x00 (0000ms, 4254ms total)
T0898 2586:247 JLINK_WriteReg(R8, 0x00000000)  returns 0x00 (0000ms, 4254ms total)
T0898 2586:247 JLINK_WriteReg(R9, 0x20000160)  returns 0x00 (0000ms, 4254ms total)
T0898 2586:247 JLINK_WriteReg(R10, 0x00000000)  returns 0x00 (0000ms, 4254ms total)
T0898 2586:247 JLINK_WriteReg(R11, 0x00000000)  returns 0x00 (0000ms, 4254ms total)
T0898 2586:247 JLINK_WriteReg(R12, 0x00000000)  returns 0x00 (0000ms, 4254ms total)
T0898 2586:247 JLINK_WriteReg(R13 (SP), 0x20001000)  returns 0x00 (0000ms, 4254ms total)
T0898 2586:247 JLINK_WriteReg(R14, 0x20000001)  returns 0x00 (0000ms, 4254ms total)
T0898 2586:247 JLINK_WriteReg(R15 (PC), 0x200000F4)  returns 0x00 (0000ms, 4254ms total)
T0898 2586:247 JLINK_WriteReg(XPSR, 0x01000000)  returns 0x00 (0000ms, 4254ms total)
T0898 2586:247 JLINK_WriteReg(MSP, 0x20001000)  returns 0x00 (0000ms, 4254ms total)
T0898 2586:247 JLINK_WriteReg(PSP, 0x20001000)  returns 0x00 (0000ms, 4254ms total)
T0898 2586:248 JLINK_WriteReg(CFBP, 0x00000000)  returns 0x00 (0000ms, 4255ms total)
T0898 2586:248 JLINK_SetBPEx(Addr = 0x20000000, Type = 0xFFFFFFF2)  returns 0x0000000D (0000ms, 4255ms total)
T0898 2586:248 JLINK_Go() -- CPU_ReadMem(4 bytes @ 0xE0001000) (0005ms, 4260ms total)
T0898 2586:253 JLINK_IsHalted()  returns FALSE (0001ms, 4261ms total)
T0898 2586:256 JLINK_IsHalted()  returns FALSE (0001ms, 4261ms total)
T0898 2586:259 JLINK_IsHalted()  returns FALSE (0001ms, 4261ms total)
T0898 2586:262 JLINK_IsHalted()  returns FALSE (0001ms, 4261ms total)
T0898 2586:265 JLINK_IsHalted()  returns FALSE (0001ms, 4261ms total)
T0898 2586:268 JLINK_IsHalted()  returns FALSE (0001ms, 4261ms total)
T0898 2586:271 JLINK_IsHalted()  returns FALSE (0001ms, 4261ms total)
T0898 2586:275 JLINK_IsHalted()  returns FALSE (0001ms, 4261ms total)
T0898 2586:278 JLINK_IsHalted()  returns FALSE (0001ms, 4261ms total)
T0898 2586:281 JLINK_IsHalted()  returns FALSE (0001ms, 4261ms total)
T0898 2586:284 JLINK_IsHalted() -- CPU_ReadMem(2 bytes @ 0x20000000)  returns TRUE (0005ms, 4265ms total)
T0898 2586:289 JLINK_ReadReg(R15 (PC))  returns 0x20000000 (0000ms, 4260ms total)
T0898 2586:289 JLINK_ClrBPEx(BPHandle = 0x0000000D)  returns 0x00 (0000ms, 4260ms total)
T0898 2586:289 JLINK_ReadReg(R0)  returns 0x00000000 (0000ms, 4260ms total)
T0898 2586:290 JLINK_WriteMem(0x20000164, 0x029C Bytes, ...) - Data: 01 68 21 F0 40 01 01 60 84 F8 51 70 A0 6A B0 42 ... -- CPU_WriteMem(668 bytes @ 0x20000164)  returns 0x29C (0004ms, 4264ms total)
T0898 2586:294 JLINK_WriteMem(0x20000400, 0x0164 Bytes, ...) - Data: 00 28 74 D1 20 6B 21 68 00 88 C8 60 20 6B 80 1C ... -- CPU_WriteMem(356 bytes @ 0x20000400)  returns 0x164 (0003ms, 4267ms total)
T0898 2586:297 JLINK_WriteReg(R0, 0x08002400)  returns 0x00 (0000ms, 4267ms total)
T0898 2586:297 JLINK_WriteReg(R1, 0x00000400)  returns 0x00 (0000ms, 4267ms total)
T0898 2586:297 JLINK_WriteReg(R2, 0x20000164)  returns 0x00 (0000ms, 4267ms total)
T0898 2586:297 JLINK_WriteReg(R3, 0x00000000)  returns 0x00 (0000ms, 4267ms total)
T0898 2586:297 JLINK_WriteReg(R4, 0x00000000)  returns 0x00 (0000ms, 4267ms total)
T0898 2586:297 JLINK_WriteReg(R5, 0x00000000)  returns 0x00 (0000ms, 4267ms total)
T0898 2586:297 JLINK_WriteReg(R6, 0x00000000)  returns 0x00 (0000ms, 4267ms total)
T0898 2586:297 JLINK_WriteReg(R7, 0x00000000)  returns 0x00 (0000ms, 4267ms total)
T0898 2586:297 JLINK_WriteReg(R8, 0x00000000)  returns 0x00 (0000ms, 4267ms total)
